LTspice 24.1.0 for Windows
Circuit: Z:\mnt\hdd\repo\sem4\IE_TUT_3_4\question_1.net
Start Time: Thu Apr 24 14:27:56 2025
solver = Normal
Maximum thread count: 16
tnom = 27
temp = 27
method = trap
Direct Newton iteration for .op point succeeded.
Semiconductor Device Operating Points:
                        --- MOSFET Transistors ---
Name:           M1
Model:        mosfet
Id:          1.99e-03
Vgs:         3.01e+00
Vds:         4.01e+00
Vbs:         0.00e+00
Vth:         1.00e+00
Vdsat:       2.01e+00
Gm:          1.99e-03
Gds:         0.00e+00
Gmb:         0.00e+00
Cbd:         0.00e+00
Cbs:         0.00e+00
Cgsov:       0.00e+00
Cgdov:       0.00e+00
Cgbov:       0.00e+00
Cgs:         0.00e+00
Cgd:         0.00e+00
Cgb:         0.00e+00


Total elapsed time: 0.063 seconds.

Files loaded:
Z:\mnt\hdd\repo\sem4\IE_TUT_3_4\question_1.net
C:\users\adi\AppData\Local\LTspice\lib\cmp\standard.mos

