LTspice 24.1.0 for Windows
Circuit: Z:\mnt\hdd\repo\sem4\IE_TUT_3_4\question_2.net
Start Time: Wed Apr 30 00:27:54 2025
solver = Normal
Maximum thread count: 16
tnom = 27
temp = 27
method = trap
Direct Newton iteration for .op point succeeded.
Semiconductor Device Operating Points:
                        --- MOSFET Transistors ---
Name:           M3          M4          M1          M2
Model:          1           2           3           4
Id:          4.88e-03    4.88e-03    4.88e-03    4.88e-03
Vgs:         1.70e+00    1.70e+00    1.70e+00    1.70e+00
Vds:         1.70e+00    2.83e+01    1.70e+00    1.70e+00
Vbs:         0.00e+00    0.00e+00    0.00e+00    0.00e+00
Vth:         1.00e+00    1.00e+00    1.00e+00    1.00e+00
Vdsat:       6.98e-01    6.98e-01    6.98e-01    6.98e-01
Gm:          1.40e-02    1.40e-02    1.40e-02    1.40e-02
Gds:         0.00e+00    0.00e+00    0.00e+00    0.00e+00
Gmb:         0.00e+00    0.00e+00    0.00e+00    0.00e+00
Cbd:         0.00e+00    0.00e+00    0.00e+00    0.00e+00
Cbs:         0.00e+00    0.00e+00    0.00e+00    0.00e+00
Cgsov:       0.00e+00    0.00e+00    0.00e+00    0.00e+00
Cgdov:       0.00e+00    0.00e+00    0.00e+00    0.00e+00
Cgbov:       0.00e+00    0.00e+00    0.00e+00    0.00e+00
Cgs:         0.00e+00    0.00e+00    0.00e+00    0.00e+00
Cgd:         0.00e+00    0.00e+00    0.00e+00    0.00e+00
Cgb:         0.00e+00    0.00e+00    0.00e+00    0.00e+00


Total elapsed time: 0.064 seconds.

Files loaded:
Z:\mnt\hdd\repo\sem4\IE_TUT_3_4\question_2.net
C:\users\adi\AppData\Local\LTspice\lib\cmp\standard.mos

